T2DD0 9080:598.279   SEGGER J-Link V6.60d Log File
T2DD0 9080:598.355   DLL Compiled: Jan  9 2020 17:43:01
T2DD0 9080:598.365   Logging started @ 2020-07-27 09:30
T2DD0 9080:598.379 JLINK_SetWarnOutHandler(...)
T2DD0 9080:598.388 - 0.013ms
T2DD0 9080:598.399 JLINK_OpenEx(...)
T2DD0 9080:599.633   Firmware: J-Link OB-STM32F072-CortexM compiled Jan  7 2019 14:09:37
T2DD0 9080:606.957   Hardware: V1.00
T2DD0 9080:607.014   S/N: 4294967295
T2DD0 9080:607.040   OEM: SEGGER
T2DD0 9080:607.066   Feature(s): GDB, RDI, FlashBP, FlashDL, JFlash, RDDI
T2DD0 9080:608.736   TELNET listener socket opened on port 19021
T2DD0 9080:609.358   Device "S32K144" selected.
T2DD0 9080:610.491   WEBSRV Starting webserver
T2DD0 9080:610.704   WEBSRV Webserver running on local port 19080
T2DD0 9080:610.723 - 12.330ms returns "O.K."
T2DD0 9080:611.178 JLINK_GetEmuCaps()
T2DD0 9080:611.199 - 0.025ms returns 0xB8EA5A33
T2DD0 9080:611.211 JLINK_TIF_GetAvailable(...)
T2DD0 9080:611.551 - 0.350ms
T2DD0 9080:611.571 JLINK_SetErrorOutHandler(...)
T2DD0 9080:611.581 - 0.015ms
T2DD0 9080:611.602 JLINK_ExecCommand("ProjectFile = "D:\GitRes\Resource\RT01_Template\Tools\JLinkSettings.ini"", ...). 
T2DD0 9080:612.697   Device "S32K144" selected.
T2DD0 9080:613.256 - 1.667ms returns 0x00
T2DD0 9080:613.296 JLINK_ExecCommand("Device = S32K144HAxxxLHx", ...). 
T2DD0 9080:613.815   Device "S32K144" selected.
T2DD0 9080:614.378 - 1.083ms returns 0x00
T2DD0 9080:614.402 JLINK_ExecCommand("DisableConnectionTimeout", ...). 
T2DD0 9080:614.416 - 0.007ms returns 0x01
T2DD0 9080:614.431 JLINK_GetHardwareVersion()
T2DD0 9080:614.441 - 0.014ms returns 0x2710
T2DD0 9080:614.451 JLINK_GetDLLVersion()  returns 66004
T2DD0 9080:614.462 JLINK_GetFirmwareString(...)
T2DD0 9080:614.471 - 0.012ms
T2DD0 9080:614.502 JLINK_GetDLLVersion()  returns 66004
T2DD0 9080:614.512 JLINK_GetCompileDateTime()
T2DD0 9080:614.521 - 0.012ms
T2DD0 9080:614.535 JLINK_GetFirmwareString(...)
T2DD0 9080:614.544 - 0.014ms
T2DD0 9080:614.557 JLINK_GetHardwareVersion()
T2DD0 9080:614.566 - 0.012ms returns 0x2710
T2DD0 9080:614.589 JLINK_TIF_Select(JLINKARM_TIF_SWD)
T2DD0 9080:615.565 - 1.007ms returns 0x00
T2DD0 9080:615.614 JLINK_SetSpeed(5000)
T2DD0 9080:615.815 - 0.211ms
T2DD0 9080:615.836 JLINK_GetId()
T2DD0 9080:616.171   InitTarget()
T2DD0 9080:671.297   Found SW-DP with ID 0x2BA01477
T2DD0 9080:674.692   Scanning AP map to find all available APs
T2DD0 9080:680.092   AP[2]: Stopped AP scan as end of AP map has been reached
T2DD0 9080:680.114   AP[0]: AHB-AP (IDR: 0x24770011)
T2DD0 9080:680.130   AP[1]: JTAG-AP (IDR: 0x001C0000)
T2DD0 9080:680.145   Iterating through AP map to find AHB-AP to use
T2DD0 9080:686.871   AP[0]: Core found
T2DD0 9080:686.912   AP[0]: AHB-AP ROM base: 0xE00FF000
T2DD0 9080:690.229   CPUID register: 0x410FC241. Implementer code: 0x41 (ARM)
T2DD0 9080:690.253   Found Cortex-M4 r0p1, Little endian.
T2DD0 9080:792.169    -- Max. mem block: 0x00002340
T2DD0 9080:792.259    -- CPU_ReadMem(4 bytes @ 0xE000EDF0)
T2DD0 9080:793.330    -- CPU_WriteMem(4 bytes @ 0xE000EDF0)
T2DD0 9080:794.022    -- CPU_ReadMem(4 bytes @ 0xE0002000)
T2DD0 9080:794.676   FPUnit: 6 code (BP) slots and 2 literal slots
T2DD0 9080:794.739    -- CPU_ReadMem(4 bytes @ 0xE000EDFC)
T2DD0 9080:795.342    -- CPU_WriteMem(4 bytes @ 0xE000EDFC)
T2DD0 9080:795.936    -- CPU_ReadMem(4 bytes @ 0xE0001000)
T2DD0 9080:796.453    -- CPU_WriteMem(4 bytes @ 0xE0001000)
T2DD0 9080:797.116    -- CPU_ReadMem(4 bytes @ 0xE000ED88)
T2DD0 9080:797.673    -- CPU_WriteMem(4 bytes @ 0xE000ED88)
T2DD0 9080:798.241    -- CPU_ReadMem(4 bytes @ 0xE000ED88)
T2DD0 9080:798.801    -- CPU_WriteMem(4 bytes @ 0xE000ED88)
T2DD0 9080:799.450   CoreSight components:
T2DD0 9080:799.492   ROMTbl[0] @ E00FF000
T2DD0 9080:799.519    -- CPU_ReadMem(16 bytes @ 0xE00FF000)
T2DD0 9080:800.169    -- CPU_ReadMem(16 bytes @ 0xE000EFF0)
T2DD0 9080:800.802    -- CPU_ReadMem(16 bytes @ 0xE000EFE0)
T2DD0 9080:801.445   ROMTbl[0][0]: E000E000, CID: B105E00D, PID: 000BB00C SCS-M7
T2DD0 9080:801.502    -- CPU_ReadMem(16 bytes @ 0xE0001FF0)
T2DD0 9080:802.317    -- CPU_ReadMem(16 bytes @ 0xE0001FE0)
T2DD0 9080:803.076   ROMTbl[0][1]: E0001000, CID: B105E00D, PID: 003BB002 DWT
T2DD0 9080:803.128    -- CPU_ReadMem(16 bytes @ 0xE0002FF0)
T2DD0 9080:803.775    -- CPU_ReadMem(16 bytes @ 0xE0002FE0)
T2DD0 9080:804.416   ROMTbl[0][2]: E0002000, CID: B105E00D, PID: 002BB003 FPB
T2DD0 9080:804.434    -- CPU_ReadMem(16 bytes @ 0xE0000FF0)
T2DD0 9080:805.042    -- CPU_ReadMem(16 bytes @ 0xE0000FE0)
T2DD0 9080:805.653   ROMTbl[0][3]: E0000000, CID: B105E00D, PID: 003BB001 ITM
T2DD0 9080:805.672    -- CPU_ReadMem(16 bytes @ 0xE00FF010)
T2DD0 9080:806.290    -- CPU_ReadMem(16 bytes @ 0xE0040FF0)
T2DD0 9080:806.976    -- CPU_ReadMem(16 bytes @ 0xE0040FE0)
T2DD0 9080:807.631   ROMTbl[0][4]: E0040000, CID: B105900D, PID: 000BB9A1 TPIU
T2DD0 9080:807.650    -- CPU_ReadMem(16 bytes @ 0xE00FF020)
T2DD0 9080:808.285   Initializing 61440 bytes work RAM @ 0x1FFF8000
T2DD0 9080:808.307   CPU is running
T2DD0 9080:808.321    -- CPU_WriteMem(4 bytes @ 0xE000EDF0)
T2DD0 9080:808.802   CPU is running
T2DD0 9080:808.821    -- CPU_WriteMem(4 bytes @ 0xE000EDFC)
T2DD0 9080:809.333   Reset: Halt core after reset via DEMCR.VC_CORERESET.
T2DD0 9080:809.999   Reset: Reset device via AIRCR.SYSRESETREQ.
T2DD0 9080:810.017   CPU is running
T2DD0 9080:810.031    -- CPU_WriteMem(4 bytes @ 0xE000ED0C)
T2DD0 9080:863.874    -- CPU_ReadMem(4 bytes @ 0xE000EDF0)
T2DD0 9080:864.665    -- CPU_ReadMem(4 bytes @ 0xE000EDF0)
T2DD0 9080:865.402   CPU is running
T2DD0 9080:865.426    -- CPU_WriteMem(4 bytes @ 0xE000EDF0)
T2DD0 9080:866.031   CPU is running
T2DD0 9080:866.054    -- CPU_WriteMem(4 bytes @ 0xE000EDFC)
T2DD0 9080:871.901    -- CPU_ReadMem(4 bytes @ 0xE000EDF0)
T2DD0 9080:877.522    -- CPU_WriteMem(4 bytes @ 0xE0002000)
T2DD0 9080:878.320    -- CPU_ReadMem(4 bytes @ 0xE000EDFC)
T2DD0 9080:878.924    -- CPU_ReadMem(4 bytes @ 0xE0001000)
T2DD0 9080:879.469    -- CPU_WriteMem(61440 bytes @ 0x1FFF8000)
T2DD0 9081:458.377 - 842.579ms   returns 0x2BA01477
T2DD0 9081:458.430 JLINK_GetDLLVersion()  returns 66004
T2DD0 9081:458.506 JLINK_CORE_GetFound()
T2DD0 9081:458.527 - 0.025ms returns 0xE0000FF
T2DD0 9081:458.539 JLINK_GetDebugInfo(0x100 = JLINKARM_ROM_TABLE_ADDR_INDEX)
T2DD0 9081:458.548   Value=0xE00FF000
T2DD0 9081:458.560 - 0.025ms returns 0x00
T2DD0 9081:458.591 JLINK_GetDebugInfo(0x100 = JLINKARM_ROM_TABLE_ADDR_INDEX)
T2DD0 9081:458.600   Value=0xE00FF000
T2DD0 9081:458.612 - 0.024ms returns 0x00
T2DD0 9081:458.620 JLINK_GetDebugInfo(0x101 = JLINKARM_DEBUG_INFO_ETM_ADDR_INDEX)
T2DD0 9081:458.629   Value=0x00000000
T2DD0 9081:458.641 - 0.024ms returns 0x00
T2DD0 9081:458.652   JLINK_ReadMemEx(0xE0041FF0, 0x0010 Bytes, ..., Flags = 0x02000004)
T2DD0 9081:458.671    -- CPU_ReadMem(16 bytes @ 0xE0041FF0)
T2DD0 9081:459.332   Data:  00 00 00 00 00 00 00 00 00 00 00 00 00 00 00 00
T2DD0 9081:459.352 - 0.705ms returns 0x10
T2DD0 9081:459.363 JLINK_GetDebugInfo(0x102 = JLINKARM_DEBUG_INFO_MTB_ADDR_INDEX)
T2DD0 9081:459.372   Value=0x00000000
T2DD0 9081:459.384 - 0.027ms returns 0x00
T2DD0 9081:459.400 JLINK_GetDebugInfo(0x103 = JLINKARM_DEBUG_INFO_TPIU_ADDR_INDEX)
T2DD0 9081:459.418   Value=0xE0040000
T2DD0 9081:459.442 - 0.050ms returns 0x00
T2DD0 9081:459.460 JLINK_GetDebugInfo(0x104 = JLINKARM_DEBUG_INFO_ITM_ADDR_INDEX)
T2DD0 9081:459.477   Value=0xE0000000
T2DD0 9081:459.501 - 0.048ms returns 0x00
T2DD0 9081:459.519 JLINK_GetDebugInfo(0x105 = JLINKARM_DEBUG_INFO_DWT_ADDR_INDEX)
T2DD0 9081:459.536   Value=0xE0001000
T2DD0 9081:459.559 - 0.048ms returns 0x00
T2DD0 9081:459.577 JLINK_GetDebugInfo(0x106 = JLINKARM_DEBUG_INFO_FPB_ADDR_INDEX)
T2DD0 9081:459.594   Value=0xE0002000
T2DD0 9081:459.618 - 0.048ms returns 0x00
T2DD0 9081:459.636 JLINK_GetDebugInfo(0x107 = JLINKARM_DEBUG_INFO_NVIC_ADDR_INDEX)
T2DD0 9081:459.653   Value=0xE000E000
T2DD0 9081:459.676 - 0.048ms returns 0x00
T2DD0 9081:459.694 JLINK_GetDebugInfo(0x10C = JLINKARM_DEBUG_INFO_DBG_ADDR_INDEX)
T2DD0 9081:459.711   Value=0xE000EDF0
T2DD0 9081:459.804 - 0.119ms returns 0x00
T2DD0 9081:459.823 JLINK_GetDebugInfo(0x01 = Unknown)
T2DD0 9081:459.841   Value=0x00000001
T2DD0 9081:459.865 - 0.049ms returns 0x00
T2DD0 9081:459.887   JLINK_ReadMemU32(0xE000ED00, 0x0001 Items, ...)
T2DD0 9081:459.917    -- CPU_ReadMem(4 bytes @ 0xE000ED00)
T2DD0 9081:460.570   Data:  41 C2 0F 41
T2DD0 9081:460.609    - CPUID
T2DD0 9081:460.634 - 0.756ms returns 1
T2DD0 9081:460.656 JLINK_GetDebugInfo(0x10F = JLINKARM_DEBUG_INFO_HAS_CORTEX_M_SECURITY_EXT_INDEX)
T2DD0 9081:460.674   Value=0x00000000
T2DD0 9081:460.698 - 0.050ms returns 0x00
T2DD0 9081:460.723 JLINK_SetResetType(JLINKARM_CM3_RESET_TYPE_NORMAL)
T2DD0 9081:460.740 - 0.025ms returns JLINKARM_CM3_RESET_TYPE_NORMAL
T2DD0 9081:460.759 JLINK_Reset()
T2DD0 9081:460.784    -- CPU_WriteMem(4 bytes @ 0xE000EDF0)
T2DD0 9081:461.370    -- CPU_WriteMem(4 bytes @ 0xE000EDFC)
T2DD0 9081:462.112   Reset: Halt core after reset via DEMCR.VC_CORERESET.
T2DD0 9081:463.232   Reset: Reset device via AIRCR.SYSRESETREQ.
T2DD0 9081:463.292    -- CPU_WriteMem(4 bytes @ 0xE000ED0C)
T2DD0 9081:517.000    -- CPU_ReadMem(4 bytes @ 0xE000EDF0)
T2DD0 9081:517.823    -- CPU_ReadMem(4 bytes @ 0xE000EDF0)
T2DD0 9081:518.622    -- CPU_WriteMem(4 bytes @ 0xE000EDF0)
T2DD0 9081:519.305    -- CPU_WriteMem(4 bytes @ 0xE000EDFC)
T2DD0 9081:526.007    -- CPU_ReadMem(4 bytes @ 0xE000EDF0)
T2DD0 9081:531.631    -- CPU_WriteMem(4 bytes @ 0xE0002000)
T2DD0 9081:532.437    -- CPU_ReadMem(4 bytes @ 0xE000EDFC)
T2DD0 9081:533.165    -- CPU_ReadMem(4 bytes @ 0xE0001000)
T2DD0 9081:533.910 - 73.180ms
T2DD0 9081:534.085 JLINK_ReadReg(R15 (PC))
T2DD0 9081:534.130 - 0.057ms returns 0x0000058C
T2DD0 9081:534.153 JLINK_ReadReg(XPSR)
T2DD0 9081:534.173 - 0.029ms returns 0x01000000
T2DD0 9081:534.197 JLINK_Halt()
T2DD0 9081:534.215 - 0.028ms returns 0x00
T2DD0 9081:534.237   JLINK_ReadMemU32(0xE000EDF0, 0x0001 Items, ...)
T2DD0 9081:534.272    -- CPU_ReadMem(4 bytes @ 0xE000EDF0)
T2DD0 9081:534.917   Data:  03 00 03 00
T2DD0 9081:534.963    - DHCSR
T2DD0 9081:534.990 - 0.772ms returns 1
T2DD0 9081:535.029   JLINK_WriteU32(0xE000EDF0, 0xA05F0003)
T2DD0 9081:535.057    - DHCSR
T2DD0 9081:535.097    -- CPU_WriteMem(4 bytes @ 0xE000EDF0)
T2DD0 9081:535.738 - 0.732ms returns 0
T2DD0 9081:535.777   JLINK_WriteU32(0xE000EDFC, 0x01000000)
T2DD0 9081:535.806    - DEMCR
T2DD0 9081:535.840    -- CPU_WriteMem(4 bytes @ 0xE000EDFC)
T2DD0 9081:536.501 - 0.747ms returns 0
T2DD0 9081:536.588 JLINK_GetHWStatus(...)
T2DD0 9081:536.919 - 0.353ms returns 0x00
T2DD0 9081:536.989 JLINK_GetNumBPUnits(Type = 0xFFFFFF00)
T2DD0 9081:537.024 - 0.044ms returns 0x06
T2DD0 9081:537.045 JLINK_GetNumBPUnits(Type = 0xF0)
T2DD0 9081:537.066 - 0.030ms returns 0x2000
T2DD0 9081:537.088 JLINK_GetNumWPUnits()
T2DD0 9081:537.107 - 0.028ms returns 0x04
T2DD0 9081:537.235 JLINK_GetSpeed()
T2DD0 9081:537.285 - 0.063ms returns 0x7D0
T2DD0 9081:537.332   JLINK_ReadMemU32(0xE000E004, 0x0001 Items, ...)
T2DD0 9081:537.381    -- CPU_ReadMem(4 bytes @ 0xE000E004)
T2DD0 9081:537.930   Data:  04 00 00 00
T2DD0 9081:537.971 - 0.650ms returns 1
T2DD0 9081:538.004   JLINK_ReadMemU32(0xE000E004, 0x0001 Items, ...)
T2DD0 9081:538.040    -- CPU_ReadMem(4 bytes @ 0xE000E004)
T2DD0 9081:538.670   Data:  04 00 00 00
T2DD0 9081:538.711 - 0.717ms returns 1
T2DD0 9081:538.739 JLINK_WriteMemEx(0xE0001000, 0x001C Bytes, ..., Flags = 0x02000004)
T2DD0 9081:538.760   Data:  01 00 00 00 00 00 00 00 00 00 00 00 00 00 00 00 ...
T2DD0 9081:539.344    -- CPU_WriteMem(28 bytes @ 0xE0001000)
T2DD0 9081:540.153 - 1.424ms returns 0x1C
T2DD0 9081:540.181 JLINK_ReadReg(R15 (PC))
T2DD0 9081:540.191 - 0.015ms returns 0x0000058C
T2DD0 9081:540.201 JLINK_ReadReg(XPSR)
T2DD0 9081:540.209 - 0.013ms returns 0x01000000
T2DD0 9081:543.487   JLINK_ReadMemEx(0xE0001004, 0x0004 Bytes, ..., Flags = 0x02000000)
T2DD0 9081:543.511   Data:  00 00 00 00
T2DD0 9081:543.525    - DWT_CYCCNT
T2DD0 9081:543.538 - 0.057ms returns 0x04
T2DD0 9081:604.785 JLINK_SetResetType(JLINKARM_CM3_RESET_TYPE_NORMAL)
T2DD0 9081:604.880 - 0.103ms returns JLINKARM_CM3_RESET_TYPE_NORMAL
T2DD0 9081:604.894 JLINK_Reset()
T2DD0 9081:604.914    -- CPU_WriteMem(4 bytes @ 0xE000EDF0)
T2DD0 9081:605.644    -- CPU_WriteMem(4 bytes @ 0xE000EDFC)
T2DD0 9081:606.275   Reset: Halt core after reset via DEMCR.VC_CORERESET.
T2DD0 9081:607.073   Reset: Reset device via AIRCR.SYSRESETREQ.
T2DD0 9081:607.119    -- CPU_WriteMem(4 bytes @ 0xE000ED0C)
T2DD0 9081:661.362    -- CPU_ReadMem(4 bytes @ 0xE000EDF0)
T2DD0 9081:662.034    -- CPU_ReadMem(4 bytes @ 0xE000EDF0)
T2DD0 9081:662.802    -- CPU_WriteMem(4 bytes @ 0xE000EDF0)
T2DD0 9081:663.614    -- CPU_WriteMem(4 bytes @ 0xE000EDFC)
T2DD0 9081:669.356    -- CPU_ReadMem(4 bytes @ 0xE000EDF0)
T2DD0 9081:674.908    -- CPU_WriteMem(4 bytes @ 0xE0002000)
T2DD0 9081:675.645    -- CPU_ReadMem(4 bytes @ 0xE000EDFC)
T2DD0 9081:676.285    -- CPU_ReadMem(4 bytes @ 0xE0001000)
T2DD0 9081:677.033 - 72.152ms
T2DD0 9081:677.129 JLINK_ReadReg(R15 (PC))
T2DD0 9081:677.148 - 0.024ms returns 0x0000058C
T2DD0 9081:677.160 JLINK_ReadReg(XPSR)
T2DD0 9081:677.169 - 0.013ms returns 0x01000000
T2DD0 9081:677.834   JLINK_ReadMemEx(0x0000058C, 0x003C Bytes, ..., Flags = 0x02000000)
T2DD0 9081:677.865    -- CPU_ReadMem(128 bytes @ 0x00000580)
T2DD0 9081:679.546    -- Updating C cache (128 bytes @ 0x00000580)
T2DD0 9081:679.565    -- Read from C cache (60 bytes @ 0x0000058C)
T2DD0 9081:679.579   Data:  09 48 72 B6 09 48 80 47 09 48 80 47 62 B6 09 48 ...
T2DD0 9081:679.591 - 1.762ms returns 0x3C
T2DD0 9083:245.530 JLINK_ReadReg(R0)
T2DD0 9083:246.186 - 0.673ms returns 0x00000000
T2DD0 9083:246.210 JLINK_ReadReg(R1)
T2DD0 9083:246.220 - 0.014ms returns 0x00000000
T2DD0 9083:246.230 JLINK_ReadReg(R2)
T2DD0 9083:246.238 - 0.013ms returns 0x00000000
T2DD0 9083:246.248 JLINK_ReadReg(R3)
T2DD0 9083:246.258 - 0.013ms returns 0x00000000
T2DD0 9083:246.267 JLINK_ReadReg(R4)
T2DD0 9083:246.276 - 0.012ms returns 0x00000000
T2DD0 9083:246.285 JLINK_ReadReg(R5)
T2DD0 9083:246.293 - 0.012ms returns 0x00000000
T2DD0 9083:246.304 JLINK_ReadReg(R6)
T2DD0 9083:246.312 - 0.013ms returns 0x00000000
T2DD0 9083:246.322 JLINK_ReadReg(R7)
T2DD0 9083:246.330 - 0.013ms returns 0x00000000
T2DD0 9083:246.345 JLINK_ReadReg(R8)
T2DD0 9083:246.353 - 0.012ms returns 0x00000000
T2DD0 9083:246.363 JLINK_ReadReg(R9)
T2DD0 9083:246.371 - 0.012ms returns 0x00000000
T2DD0 9083:246.381 JLINK_ReadReg(R10)
T2DD0 9083:246.390 - 0.012ms returns 0x00000000
T2DD0 9083:246.400 JLINK_ReadReg(R11)
T2DD0 9083:246.409 - 0.013ms returns 0x00000000
T2DD0 9083:246.420 JLINK_ReadReg(R12)
T2DD0 9083:246.428 - 0.012ms returns 0x00000000
T2DD0 9083:246.439 JLINK_ReadReg(R13 (SP))
T2DD0 9083:246.447 - 0.013ms returns 0x20007000
T2DD0 9083:246.457 JLINK_ReadReg(R14)
T2DD0 9083:246.466 - 0.013ms returns 0xFFFFFFFF
T2DD0 9083:246.476 JLINK_ReadReg(R15 (PC))
T2DD0 9083:246.485 - 0.013ms returns 0x0000058C
T2DD0 9083:246.496 JLINK_ReadReg(XPSR)
T2DD0 9083:246.504 - 0.012ms returns 0x01000000
T2DD0 9083:246.514 JLINK_ReadReg(MSP)
T2DD0 9083:246.523 - 0.013ms returns 0x20007000
T2DD0 9083:246.534 JLINK_ReadReg(PSP)
T2DD0 9083:246.545 - 0.015ms returns 0x00000000
T2DD0 9083:246.556 JLINK_ReadReg(CFBP)
T2DD0 9083:246.565 - 0.013ms returns 0x00000000
T2DD0 9083:246.575 JLINK_ReadReg(FPSCR)
T2DD0 9083:253.807 - 7.246ms returns 0x00000000
T2DD0 9083:253.830 JLINK_ReadReg(FPS0)
T2DD0 9083:253.846 - 0.026ms returns 0x00000000
T2DD0 9083:253.874 JLINK_ReadReg(FPS1)
T2DD0 9083:253.899 - 0.036ms returns 0x00000000
T2DD0 9083:253.926 JLINK_ReadReg(FPS2)
T2DD0 9083:253.949 - 0.034ms returns 0x00000000
T2DD0 9083:253.976 JLINK_ReadReg(FPS3)
T2DD0 9083:253.999 - 0.034ms returns 0x00000000
T2DD0 9083:254.026 JLINK_ReadReg(FPS4)
T2DD0 9083:254.049 - 0.034ms returns 0x00000000
T2DD0 9083:254.076 JLINK_ReadReg(FPS5)
T2DD0 9083:254.099 - 0.034ms returns 0x00000000
T2DD0 9083:254.126 JLINK_ReadReg(FPS6)
T2DD0 9083:254.149 - 0.034ms returns 0x00000000
T2DD0 9083:254.176 JLINK_ReadReg(FPS7)
T2DD0 9083:254.199 - 0.040ms returns 0x00000000
T2DD0 9083:254.235 JLINK_ReadReg(FPS8)
T2DD0 9083:254.259 - 0.034ms returns 0x00000000
T2DD0 9083:254.285 JLINK_ReadReg(FPS9)
T2DD0 9083:254.308 - 0.034ms returns 0x00000000
T2DD0 9083:254.335 JLINK_ReadReg(FPS10)
T2DD0 9083:254.361 - 0.036ms returns 0x00000000
T2DD0 9083:254.388 JLINK_ReadReg(FPS11)
T2DD0 9083:254.411 - 0.035ms returns 0x00000000
T2DD0 9083:254.440 JLINK_ReadReg(FPS12)
T2DD0 9083:254.463 - 0.035ms returns 0x00000000
T2DD0 9083:254.490 JLINK_ReadReg(FPS13)
T2DD0 9083:254.512 - 0.034ms returns 0x00000000
T2DD0 9083:254.539 JLINK_ReadReg(FPS14)
T2DD0 9083:254.562 - 0.034ms returns 0x00000000
T2DD0 9083:254.590 JLINK_ReadReg(FPS15)
T2DD0 9083:254.613 - 0.035ms returns 0x00000000
T2DD0 9083:254.641 JLINK_ReadReg(FPS16)
T2DD0 9083:254.664 - 0.034ms returns 0x00000000
T2DD0 9083:254.691 JLINK_ReadReg(FPS17)
T2DD0 9083:254.714 - 0.034ms returns 0x00000000
T2DD0 9083:254.742 JLINK_ReadReg(FPS18)
T2DD0 9083:254.764 - 0.034ms returns 0x00000000
T2DD0 9083:254.792 JLINK_ReadReg(FPS19)
T2DD0 9083:254.815 - 0.035ms returns 0x00000000
T2DD0 9083:254.842 JLINK_ReadReg(FPS20)
T2DD0 9083:254.865 - 0.034ms returns 0x00000000
T2DD0 9083:254.892 JLINK_ReadReg(FPS21)
T2DD0 9083:254.917 - 0.036ms returns 0x00000000
T2DD0 9083:254.943 JLINK_ReadReg(FPS22)
T2DD0 9083:254.967 - 0.033ms returns 0x00000000
T2DD0 9083:254.986 JLINK_ReadReg(FPS23)
T2DD0 9083:254.995 - 0.013ms returns 0x00000000
T2DD0 9083:255.005 JLINK_ReadReg(FPS24)
T2DD0 9083:255.014 - 0.014ms returns 0x00000000
T2DD0 9083:255.025 JLINK_ReadReg(FPS25)
T2DD0 9083:255.033 - 0.012ms returns 0x00000000
T2DD0 9083:255.043 JLINK_ReadReg(FPS26)
T2DD0 9083:255.052 - 0.012ms returns 0x00000000
T2DD0 9083:255.061 JLINK_ReadReg(FPS27)
T2DD0 9083:255.069 - 0.012ms returns 0x00000000
T2DD0 9083:255.079 JLINK_ReadReg(FPS28)
T2DD0 9083:255.088 - 0.012ms returns 0x00000000
T2DD0 9083:255.098 JLINK_ReadReg(FPS29)
T2DD0 9083:255.106 - 0.012ms returns 0x00000000
T2DD0 9083:255.116 JLINK_ReadReg(FPS30)
T2DD0 9083:255.124 - 0.012ms returns 0x00000000
T2DD0 9083:255.134 JLINK_ReadReg(FPS31)
T2DD0 9083:255.142 - 0.012ms returns 0x00000000
T2F7C 9083:323.524   JLINK_ReadMemEx(0x0000058C, 0x0002 Bytes, ..., Flags = 0x02000000)
T2F7C 9083:323.592    -- Read from C cache (2 bytes @ 0x0000058C)
T2F7C 9083:323.618   Data:  09 48
T2F7C 9083:323.643 - 0.129ms returns 0x02
T2F7C 9083:323.675   JLINK_SetBPEx(Addr = 0x00001584, Type = 0xFFFFFFF2)
T2F7C 9083:323.705 - 0.039ms returns 0x00000001
T2F7C 9083:323.726   JLINK_SetBPEx(Addr = 0x000015AC, Type = 0xFFFFFFF2)
T2F7C 9083:323.751 - 0.034ms returns 0x00000002
T2F7C 9083:323.773   JLINK_SetBPEx(Addr = 0x00001452, Type = 0xFFFFFFF2)
T2F7C 9083:323.798 - 0.034ms returns 0x00000003
T2F7C 9083:323.823 JLINK_Go()
T2F7C 9083:323.883    -- CPU_WriteMem(4 bytes @ 0xE0002000)
T2F7C 9083:324.590    -- CPU_WriteMem(4 bytes @ 0xE0002000)
T2F7C 9083:325.242    -- CPU_WriteMem(4 bytes @ 0xE0002000)
T2F7C 9083:325.939    -- CPU_ReadMem(4 bytes @ 0xE0001000)
T2F7C 9083:326.558    -- CPU_WriteMem(4 bytes @ 0xE0002008)
T2F7C 9083:326.581    -- CPU_WriteMem(4 bytes @ 0xE000200C)
T2F7C 9083:326.594    -- CPU_WriteMem(4 bytes @ 0xE0002010)
T2F7C 9083:326.607    -- CPU_WriteMem(4 bytes @ 0xE0002014)
T2F7C 9083:326.619    -- CPU_WriteMem(4 bytes @ 0xE0002018)
T2F7C 9083:326.632    -- CPU_WriteMem(4 bytes @ 0xE000201C)
T2F7C 9083:329.241    -- CPU_WriteMem(4 bytes @ 0xE0001004)
T2F7C 9083:330.634 - 6.846ms
T2F7C 9083:430.950 JLINK_IsHalted()
T2F7C 9083:435.738 - 4.818ms returns TRUE
T2F7C 9083:435.831 JLINK_Halt()
T2F7C 9083:435.850 - 0.023ms returns 0x00
T2F7C 9083:435.861 JLINK_IsHalted()
T2F7C 9083:435.869 - 0.013ms returns TRUE
T2F7C 9083:435.879 JLINK_IsHalted()
T2F7C 9083:435.887 - 0.018ms returns TRUE
T2F7C 9083:435.902 JLINK_IsHalted()
T2F7C 9083:435.911 - 0.013ms returns TRUE
T2F7C 9083:435.923 JLINK_ReadReg(R15 (PC))
T2F7C 9083:435.934 - 0.016ms returns 0x00000AA2
T2F7C 9083:435.944 JLINK_ReadReg(XPSR)
T2F7C 9083:435.953 - 0.013ms returns 0x01000000
T2F7C 9083:435.975 JLINK_ClrBPEx(BPHandle = 0x00000001)
T2F7C 9083:435.987 - 0.016ms returns 0x00
T2F7C 9083:435.998 JLINK_ClrBPEx(BPHandle = 0x00000002)
T2F7C 9083:436.007 - 0.012ms returns 0x00
T2F7C 9083:436.017 JLINK_ClrBPEx(BPHandle = 0x00000003)
T2F7C 9083:436.025 - 0.012ms returns 0x00
T2F7C 9083:436.037   JLINK_ReadMemU32(0xE000ED30, 0x0001 Items, ...)
T2F7C 9083:436.055    -- CPU_ReadMem(4 bytes @ 0xE000ED30)
T2F7C 9083:436.695   Data:  02 00 00 00
T2F7C 9083:436.738 - 0.711ms returns 1
T2F7C 9083:436.763   JLINK_ReadMemU32(0xE0001028, 0x0001 Items, ...)
T2F7C 9083:436.797    -- CPU_ReadMem(4 bytes @ 0xE0001028)
T2F7C 9083:437.425   Data:  00 00 00 00
T2F7C 9083:437.448    - DWT_FUNC[0]
T2F7C 9083:437.460 - 0.702ms returns 1
T2F7C 9083:437.472   JLINK_ReadMemU32(0xE0001038, 0x0001 Items, ...)
T2F7C 9083:437.488    -- CPU_ReadMem(4 bytes @ 0xE0001038)
T2F7C 9083:438.065   Data:  00 02 00 00
T2F7C 9083:438.085    - DWT_FUNC[1]
T2F7C 9083:438.098 - 0.630ms returns 1
T2F7C 9083:438.109   JLINK_ReadMemU32(0xE0001048, 0x0001 Items, ...)
T2F7C 9083:438.125    -- CPU_ReadMem(4 bytes @ 0xE0001048)
T2F7C 9083:438.739   Data:  00 00 00 00
T2F7C 9083:438.767    - DWT_FUNC[2]
T2F7C 9083:438.780 - 0.675ms returns 1
T2F7C 9083:438.794   JLINK_ReadMemU32(0xE0001058, 0x0001 Items, ...)
T2F7C 9083:438.813    -- CPU_ReadMem(4 bytes @ 0xE0001058)
T2F7C 9083:439.423   Data:  00 00 00 00
T2F7C 9083:439.446    - DWT_FUNC[3]
T2F7C 9083:439.458 - 0.669ms returns 1
T2F7C 9083:439.507 JLINK_ReadReg(R0)
T2F7C 9083:439.519 - 0.016ms returns 0x00000001
T2F7C 9083:439.529 JLINK_ReadReg(R1)
T2F7C 9083:439.538 - 0.012ms returns 0x20006FB8
T2F7C 9083:439.547 JLINK_ReadReg(R2)
T2F7C 9083:439.555 - 0.012ms returns 0x00000000
T2F7C 9083:439.564 JLINK_ReadReg(R3)
T2F7C 9083:439.573 - 0.012ms returns 0x00003435
T2F7C 9083:439.582 JLINK_ReadReg(R4)
T2F7C 9083:439.591 - 0.012ms returns 0x00000000
T2F7C 9083:439.600 JLINK_ReadReg(R5)
T2F7C 9083:439.609 - 0.012ms returns 0x00000001
T2F7C 9083:439.618 JLINK_ReadReg(R6)
T2F7C 9083:439.626 - 0.012ms returns 0x200001BC
T2F7C 9083:439.635 JLINK_ReadReg(R7)
T2F7C 9083:439.644 - 0.012ms returns 0x00003434
T2F7C 9083:439.653 JLINK_ReadReg(R8)
T2F7C 9083:439.661 - 0.012ms returns 0x00000000
T2F7C 9083:439.670 JLINK_ReadReg(R9)
T2F7C 9083:439.679 - 0.012ms returns 0x00000000
T2F7C 9083:439.688 JLINK_ReadReg(R10)
T2F7C 9083:439.696 - 0.012ms returns 0x00003470
T2F7C 9083:439.705 JLINK_ReadReg(R11)
T2F7C 9083:439.714 - 0.012ms returns 0x00003470
T2F7C 9083:439.723 JLINK_ReadReg(R12)
T2F7C 9083:439.732 - 0.012ms returns 0x00000000
T2F7C 9083:439.741 JLINK_ReadReg(R13 (SP))
T2F7C 9083:439.749 - 0.012ms returns 0x20006FB8
T2F7C 9083:439.759 JLINK_ReadReg(R14)
T2F7C 9083:439.767 - 0.012ms returns 0x00000A9D
T2F7C 9083:439.776 JLINK_ReadReg(R15 (PC))
T2F7C 9083:439.785 - 0.012ms returns 0x00000AA2
T2F7C 9083:439.794 JLINK_ReadReg(XPSR)
T2F7C 9083:439.802 - 0.012ms returns 0x01000000
T2F7C 9083:439.812 JLINK_ReadReg(MSP)
T2F7C 9083:439.820 - 0.012ms returns 0x20006FB8
T2F7C 9083:439.829 JLINK_ReadReg(PSP)
T2F7C 9083:439.837 - 0.012ms returns 0x00000000
T2F7C 9083:439.846 JLINK_ReadReg(CFBP)
T2F7C 9083:439.855 - 0.012ms returns 0x04000000
T2F7C 9083:439.864 JLINK_ReadReg(FPSCR)
T2F7C 9083:447.166 - 7.333ms returns 0x03000000
T2F7C 9083:447.215 JLINK_ReadReg(FPS0)
T2F7C 9083:447.238 - 0.032ms returns 0x00000000
T2F7C 9083:447.259 JLINK_ReadReg(FPS1)
T2F7C 9083:447.277 - 0.026ms returns 0x00000000
T2F7C 9083:447.296 JLINK_ReadReg(FPS2)
T2F7C 9083:447.314 - 0.026ms returns 0x00000000
T2F7C 9083:447.333 JLINK_ReadReg(FPS3)
T2F7C 9083:447.351 - 0.026ms returns 0x00000000
T2F7C 9083:447.370 JLINK_ReadReg(FPS4)
T2F7C 9083:447.387 - 0.026ms returns 0x00000000
T2F7C 9083:447.407 JLINK_ReadReg(FPS5)
T2F7C 9083:447.425 - 0.026ms returns 0x00000000
T2F7C 9083:447.444 JLINK_ReadReg(FPS6)
T2F7C 9083:447.462 - 0.033ms returns 0x00000000
T2F7C 9083:447.488 JLINK_ReadReg(FPS7)
T2F7C 9083:447.505 - 0.025ms returns 0x00000000
T2F7C 9083:447.524 JLINK_ReadReg(FPS8)
T2F7C 9083:447.545 - 0.033ms returns 0x00000000
T2F7C 9083:447.567 JLINK_ReadReg(FPS9)
T2F7C 9083:447.585 - 0.026ms returns 0x00000000
T2F7C 9083:447.603 JLINK_ReadReg(FPS10)
T2F7C 9083:447.622 - 0.027ms returns 0x00000000
T2F7C 9083:447.641 JLINK_ReadReg(FPS11)
T2F7C 9083:447.659 - 0.027ms returns 0x00000000
T2F7C 9083:447.678 JLINK_ReadReg(FPS12)
T2F7C 9083:447.695 - 0.026ms returns 0x00000000
T2F7C 9083:447.714 JLINK_ReadReg(FPS13)
T2F7C 9083:447.731 - 0.026ms returns 0x00000000
T2F7C 9083:447.751 JLINK_ReadReg(FPS14)
T2F7C 9083:447.768 - 0.026ms returns 0x00000000
T2F7C 9083:447.787 JLINK_ReadReg(FPS15)
T2F7C 9083:447.807 - 0.028ms returns 0x00000000
T2F7C 9083:447.826 JLINK_ReadReg(FPS16)
T2F7C 9083:447.844 - 0.026ms returns 0x00000000
T2F7C 9083:447.863 JLINK_ReadReg(FPS17)
T2F7C 9083:447.880 - 0.025ms returns 0x00000000
T2F7C 9083:447.899 JLINK_ReadReg(FPS18)
T2F7C 9083:447.918 - 0.027ms returns 0x00000000
T2F7C 9083:447.937 JLINK_ReadReg(FPS19)
T2F7C 9083:447.955 - 0.027ms returns 0x00000000
T2F7C 9083:447.974 JLINK_ReadReg(FPS20)
T2F7C 9083:447.991 - 0.025ms returns 0x00000000
T2F7C 9083:448.011 JLINK_ReadReg(FPS21)
T2F7C 9083:448.028 - 0.026ms returns 0x00000000
T2F7C 9083:448.049 JLINK_ReadReg(FPS22)
T2F7C 9083:448.066 - 0.025ms returns 0x00000000
T2F7C 9083:448.085 JLINK_ReadReg(FPS23)
T2F7C 9083:448.102 - 0.025ms returns 0x00000000
T2F7C 9083:448.121 JLINK_ReadReg(FPS24)
T2F7C 9083:448.139 - 0.026ms returns 0x00000000
T2F7C 9083:448.158 JLINK_ReadReg(FPS25)
T2F7C 9083:448.176 - 0.026ms returns 0x00000000
T2F7C 9083:448.195 JLINK_ReadReg(FPS26)
T2F7C 9083:448.208 - 0.018ms returns 0x00000000
T2F7C 9083:448.218 JLINK_ReadReg(FPS27)
T2F7C 9083:448.227 - 0.013ms returns 0x00000000
T2F7C 9083:448.237 JLINK_ReadReg(FPS28)
T2F7C 9083:448.248 - 0.015ms returns 0x00000000
T2F7C 9083:448.260 JLINK_ReadReg(FPS29)
T2F7C 9083:448.270 - 0.014ms returns 0x00000000
T2F7C 9083:448.279 JLINK_ReadReg(FPS30)
T2F7C 9083:448.289 - 0.014ms returns 0x00000000
T2F7C 9083:448.299 JLINK_ReadReg(FPS31)
T2F7C 9083:448.307 - 0.012ms returns 0x00000000
T2DD0 9083:448.455   JLINK_ReadMemEx(0x20006FC4, 0x0004 Bytes, ..., Flags = 0x02000000)
T2DD0 9083:448.486    -- CPU_ReadMem(64 bytes @ 0x20006FC0)
T2DD0 9083:449.651    -- Updating C cache (64 bytes @ 0x20006FC0)
T2DD0 9083:449.692    -- Read from C cache (4 bytes @ 0x20006FC4)
T2DD0 9083:449.718   Data:  CF 0D 00 00
T2DD0 9083:449.743 - 1.298ms returns 0x04
T2DD0 9083:449.774   JLINK_ReadMemEx(0x20006FDC, 0x0004 Bytes, ..., Flags = 0x02000000)
T2DD0 9083:449.804    -- Read from C cache (4 bytes @ 0x20006FDC)
T2DD0 9083:449.829   Data:  51 09 00 00
T2DD0 9083:449.854 - 0.088ms returns 0x04
T2DD0 9083:449.875   JLINK_ReadMemEx(0x20006FC8, 0x0004 Bytes, ..., Flags = 0x02000000)
T2DD0 9083:449.905    -- Read from C cache (4 bytes @ 0x20006FC8)
T2DD0 9083:449.931   Data:  00 00 00 00
T2DD0 9083:449.956 - 0.090ms returns 0x04
T2DD0 9083:449.976   JLINK_ReadMemEx(0x20006FCC, 0x0004 Bytes, ..., Flags = 0x02000000)
T2DD0 9083:450.002    -- Read from C cache (4 bytes @ 0x20006FCC)
T2DD0 9083:450.027   Data:  00 00 00 00
T2DD0 9083:450.053 - 0.085ms returns 0x04
T2DD0 9083:450.072   JLINK_ReadMemEx(0x20006FD0, 0x0004 Bytes, ..., Flags = 0x02000000)
T2DD0 9083:450.099    -- Read from C cache (4 bytes @ 0x20006FD0)
T2DD0 9083:450.124   Data:  00 00 00 00
T2DD0 9083:450.148 - 0.085ms returns 0x04
T2DD0 9083:450.167   JLINK_ReadMemEx(0x20006FD4, 0x0004 Bytes, ..., Flags = 0x02000000)
T2DD0 9083:450.194    -- Read from C cache (4 bytes @ 0x20006FD4)
T2DD0 9083:450.211   Data:  3F 34 00 00
T2DD0 9083:450.223 - 0.060ms returns 0x04
T2DD0 9083:450.232   JLINK_ReadMemEx(0x20006FD8, 0x0004 Bytes, ..., Flags = 0x02000000)
T2DD0 9083:450.245    -- Read from C cache (4 bytes @ 0x20006FD8)
T2DD0 9083:450.257   Data:  00 00 00 00
T2DD0 9083:450.270 - 0.043ms returns 0x04
T2DD0 9083:450.281   JLINK_ReadMemEx(0x20006FE4, 0x0004 Bytes, ..., Flags = 0x02000000)
T2DD0 9083:450.294    -- Read from C cache (4 bytes @ 0x20006FE4)
T2DD0 9083:450.309   Data:  A1 04 00 00
T2DD0 9083:450.322 - 0.046ms returns 0x04
T2DD0 9083:450.334   JLINK_ReadMemEx(0x20006FE0, 0x0004 Bytes, ..., Flags = 0x02000000)
T2DD0 9083:450.347    -- Read from C cache (4 bytes @ 0x20006FE0)
T2DD0 9083:450.359   Data:  00 00 00 00
T2DD0 9083:450.371 - 0.041ms returns 0x04
T2DD0 9083:457.392   JLINK_ReadMemEx(0x00000AA2, 0x0002 Bytes, ..., Flags = 0x02000000)
T2DD0 9083:457.437    -- CPU_ReadMem(64 bytes @ 0x00000A80)
T2DD0 9083:458.675    -- Updating C cache (64 bytes @ 0x00000A80)
T2DD0 9083:458.698    -- Read from C cache (2 bytes @ 0x00000AA2)
T2DD0 9083:458.714   Data:  AB BE
T2DD0 9083:458.727 - 1.340ms returns 0x02
T2DD0 9083:458.743   JLINK_ReadMemEx(0x00000AA4, 0x003C Bytes, ..., Flags = 0x02000000)
T2DD0 9083:458.759    -- CPU_ReadMem(64 bytes @ 0x00000AC0)
T2DD0 9083:459.918    -- Updating C cache (64 bytes @ 0x00000AC0)
T2DD0 9083:459.943    -- Read from C cache (60 bytes @ 0x00000AA4)
T2DD0 9083:459.957   Data:  0E BD 08 B5 69 46 00 90 02 20 AB BE 08 BD 1F B5 ...
T2DD0 9083:459.970 - 1.231ms returns 0x3C
T2F7C 9084:162.877   JLINK_ReadMemEx(0x00000AA2, 0x0002 Bytes, ..., Flags = 0x02000000)
T2F7C 9084:162.949    -- Read from C cache (2 bytes @ 0x00000AA2)
T2F7C 9084:162.975   Data:  AB BE
T2F7C 9084:163.000 - 0.133ms returns 0x02
T2F7C 9084:163.032 JLINK_WriteReg(R15 (PC), 0x00000AA4)
T2F7C 9084:163.054 - 0.032ms returns 0x00
T2F7C 9084:163.077   JLINK_SetBPEx(Addr = 0x000015AC, Type = 0xFFFFFFF2)
T2F7C 9084:163.104 - 0.036ms returns 0x00000004
T2F7C 9084:163.125   JLINK_SetBPEx(Addr = 0x00001452, Type = 0xFFFFFFF2)
T2F7C 9084:163.150 - 0.034ms returns 0x00000005
T2F7C 9084:163.173 JLINK_Go()
T2F7C 9084:163.899    -- CPU_WriteMem(4 bytes @ 0xE0002000)
T2F7C 9084:164.462    -- CPU_WriteMem(4 bytes @ 0xE0002000)
T2F7C 9084:165.080    -- CPU_ReadMem(4 bytes @ 0xE0001000)
T2F7C 9084:165.674    -- CPU_WriteMem(4 bytes @ 0xE0002008)
T2F7C 9084:165.695    -- CPU_WriteMem(4 bytes @ 0xE000200C)
T2F7C 9084:165.709    -- CPU_WriteMem(4 bytes @ 0xE0002010)
T2F7C 9084:168.332 - 5.190ms
T2F7C 9084:268.920 JLINK_IsHalted()
T2F7C 9084:274.037 - 5.163ms returns TRUE
T2F7C 9084:274.113 JLINK_Halt()
T2F7C 9084:274.141 - 0.040ms returns 0x00
T2F7C 9084:274.172 JLINK_IsHalted()
T2F7C 9084:274.197 - 0.038ms returns TRUE
T2F7C 9084:274.227 JLINK_IsHalted()
T2F7C 9084:274.252 - 0.037ms returns TRUE
T2F7C 9084:274.282 JLINK_IsHalted()
T2F7C 9084:274.307 - 0.037ms returns TRUE
T2F7C 9084:274.342 JLINK_ReadReg(R15 (PC))
T2F7C 9084:274.371 - 0.043ms returns 0x00000AA2
T2F7C 9084:274.402 JLINK_ReadReg(XPSR)
T2F7C 9084:274.428 - 0.038ms returns 0x01000000
T2F7C 9084:274.467 JLINK_ClrBPEx(BPHandle = 0x00000004)
T2F7C 9084:274.494 - 0.040ms returns 0x00
T2F7C 9084:274.526 JLINK_ClrBPEx(BPHandle = 0x00000005)
T2F7C 9084:274.552 - 0.038ms returns 0x00
T2F7C 9084:274.588   JLINK_ReadMemU32(0xE000ED30, 0x0001 Items, ...)
T2F7C 9084:274.637    -- CPU_ReadMem(4 bytes @ 0xE000ED30)
T2F7C 9084:275.363   Data:  02 00 00 00
T2F7C 9084:275.402 - 0.823ms returns 1
T2F7C 9084:275.427   JLINK_ReadMemU32(0xE0001028, 0x0001 Items, ...)
T2F7C 9084:275.458    -- CPU_ReadMem(4 bytes @ 0xE0001028)
T2F7C 9084:276.122   Data:  00 00 00 00
T2F7C 9084:276.144    - DWT_FUNC[0]
T2F7C 9084:276.156 - 0.734ms returns 1
T2F7C 9084:276.168   JLINK_ReadMemU32(0xE0001038, 0x0001 Items, ...)
T2F7C 9084:276.184    -- CPU_ReadMem(4 bytes @ 0xE0001038)
T2F7C 9084:276.937   Data:  00 02 00 00
T2F7C 9084:276.977    - DWT_FUNC[1]
T2F7C 9084:277.002 - 0.842ms returns 1
T2F7C 9084:277.027   JLINK_ReadMemU32(0xE0001048, 0x0001 Items, ...)
T2F7C 9084:277.059    -- CPU_ReadMem(4 bytes @ 0xE0001048)
T2F7C 9084:277.734   Data:  00 00 00 00
T2F7C 9084:277.756    - DWT_FUNC[2]
T2F7C 9084:277.768 - 0.746ms returns 1
T2F7C 9084:277.780   JLINK_ReadMemU32(0xE0001058, 0x0001 Items, ...)
T2F7C 9084:277.795    -- CPU_ReadMem(4 bytes @ 0xE0001058)
T2F7C 9084:278.388   Data:  00 00 00 00
T2F7C 9084:278.450    - DWT_FUNC[3]
T2F7C 9084:278.487 - 0.720ms returns 1
T2F7C 9084:278.622 JLINK_ReadReg(R0)
T2F7C 9084:278.671 - 0.063ms returns 0x00000001
T2F7C 9084:278.701 JLINK_ReadReg(R1)
T2F7C 9084:278.727 - 0.039ms returns 0x20006FB8
T2F7C 9084:278.755 JLINK_ReadReg(R2)
T2F7C 9084:278.781 - 0.038ms returns 0x00000000
T2F7C 9084:278.809 JLINK_ReadReg(R3)
T2F7C 9084:278.835 - 0.038ms returns 0x00003439
T2F7C 9084:278.864 JLINK_ReadReg(R4)
T2F7C 9084:278.890 - 0.036ms returns 0x00000004
T2F7C 9084:278.912 JLINK_ReadReg(R5)
T2F7C 9084:278.929 - 0.025ms returns 0x00000002
T2F7C 9084:278.949 JLINK_ReadReg(R6)
T2F7C 9084:278.965 - 0.025ms returns 0x20000210
T2F7C 9084:278.984 JLINK_ReadReg(R7)
T2F7C 9084:279.001 - 0.025ms returns 0x00003438
T2F7C 9084:279.020 JLINK_ReadReg(R8)
T2F7C 9084:279.037 - 0.025ms returns 0x00000000
T2F7C 9084:279.055 JLINK_ReadReg(R9)
T2F7C 9084:279.072 - 0.025ms returns 0x00000000
T2F7C 9084:279.091 JLINK_ReadReg(R10)
T2F7C 9084:279.109 - 0.026ms returns 0x00003470
T2F7C 9084:279.128 JLINK_ReadReg(R11)
T2F7C 9084:279.144 - 0.025ms returns 0x00003470
T2F7C 9084:279.163 JLINK_ReadReg(R12)
T2F7C 9084:279.180 - 0.025ms returns 0x00000000
T2F7C 9084:279.198 JLINK_ReadReg(R13 (SP))
T2F7C 9084:279.215 - 0.025ms returns 0x20006FB8
T2F7C 9084:279.234 JLINK_ReadReg(R14)
T2F7C 9084:279.251 - 0.026ms returns 0x00000A9D
T2F7C 9084:279.270 JLINK_ReadReg(R15 (PC))
T2F7C 9084:279.288 - 0.025ms returns 0x00000AA2
T2F7C 9084:279.306 JLINK_ReadReg(XPSR)
T2F7C 9084:279.330 - 0.032ms returns 0x01000000
T2F7C 9084:279.348 JLINK_ReadReg(MSP)
T2F7C 9084:279.365 - 0.025ms returns 0x20006FB8
T2F7C 9084:279.383 JLINK_ReadReg(PSP)
T2F7C 9084:279.400 - 0.025ms returns 0x00000000
T2F7C 9084:279.418 JLINK_ReadReg(CFBP)
T2F7C 9084:279.435 - 0.025ms returns 0x04000000
T2F7C 9084:279.453 JLINK_ReadReg(FPSCR)
T2F7C 9084:286.756 - 7.328ms returns 0x03000000
T2F7C 9084:286.796 JLINK_ReadReg(FPS0)
T2F7C 9084:286.816 - 0.031ms returns 0x00000000
T2F7C 9084:286.843 JLINK_ReadReg(FPS1)
T2F7C 9084:286.868 - 0.037ms returns 0x00000000
T2F7C 9084:286.894 JLINK_ReadReg(FPS2)
T2F7C 9084:286.918 - 0.038ms returns 0x00000000
T2F7C 9084:286.946 JLINK_ReadReg(FPS3)
T2F7C 9084:286.970 - 0.035ms returns 0x00000000
T2F7C 9084:286.997 JLINK_ReadReg(FPS4)
T2F7C 9084:287.021 - 0.035ms returns 0x00000000
T2F7C 9084:287.046 JLINK_ReadReg(FPS5)
T2F7C 9084:287.069 - 0.034ms returns 0x00000000
T2F7C 9084:287.094 JLINK_ReadReg(FPS6)
T2F7C 9084:287.117 - 0.034ms returns 0x00000000
T2F7C 9084:287.142 JLINK_ReadReg(FPS7)
T2F7C 9084:287.164 - 0.034ms returns 0x00000000
T2F7C 9084:287.189 JLINK_ReadReg(FPS8)
T2F7C 9084:287.212 - 0.034ms returns 0x00000000
T2F7C 9084:287.237 JLINK_ReadReg(FPS9)
T2F7C 9084:287.260 - 0.034ms returns 0x00000000
T2F7C 9084:287.285 JLINK_ReadReg(FPS10)
T2F7C 9084:287.308 - 0.034ms returns 0x00000000
T2F7C 9084:287.333 JLINK_ReadReg(FPS11)
T2F7C 9084:287.356 - 0.034ms returns 0x00000000
T2F7C 9084:287.380 JLINK_ReadReg(FPS12)
T2F7C 9084:287.403 - 0.034ms returns 0x00000000
T2F7C 9084:287.428 JLINK_ReadReg(FPS13)
T2F7C 9084:287.455 - 0.038ms returns 0x00000000
T2F7C 9084:287.480 JLINK_ReadReg(FPS14)
T2F7C 9084:287.503 - 0.034ms returns 0x00000000
T2F7C 9084:287.528 JLINK_ReadReg(FPS15)
T2F7C 9084:287.550 - 0.033ms returns 0x00000000
T2F7C 9084:287.576 JLINK_ReadReg(FPS16)
T2F7C 9084:287.599 - 0.035ms returns 0x00000000
T2F7C 9084:287.624 JLINK_ReadReg(FPS17)
T2F7C 9084:287.646 - 0.033ms returns 0x00000000
T2F7C 9084:287.671 JLINK_ReadReg(FPS18)
T2F7C 9084:287.694 - 0.036ms returns 0x00000000
T2F7C 9084:287.721 JLINK_ReadReg(FPS19)
T2F7C 9084:287.743 - 0.033ms returns 0x00000000
T2F7C 9084:287.768 JLINK_ReadReg(FPS20)
T2F7C 9084:287.791 - 0.033ms returns 0x00000000
T2F7C 9084:287.815 JLINK_ReadReg(FPS21)
T2F7C 9084:287.838 - 0.033ms returns 0x00000000
T2F7C 9084:287.862 JLINK_ReadReg(FPS22)
T2F7C 9084:287.884 - 0.033ms returns 0x00000000
T2F7C 9084:287.909 JLINK_ReadReg(FPS23)
T2F7C 9084:287.933 - 0.035ms returns 0x00000000
T2F7C 9084:287.958 JLINK_ReadReg(FPS24)
T2F7C 9084:287.981 - 0.035ms returns 0x00000000
T2F7C 9084:288.007 JLINK_ReadReg(FPS25)
T2F7C 9084:288.038 - 0.043ms returns 0x00000000
T2F7C 9084:288.064 JLINK_ReadReg(FPS26)
T2F7C 9084:288.087 - 0.034ms returns 0x00000000
T2F7C 9084:288.112 JLINK_ReadReg(FPS27)
T2F7C 9084:288.134 - 0.034ms returns 0x00000000
T2F7C 9084:288.159 JLINK_ReadReg(FPS28)
T2F7C 9084:288.182 - 0.034ms returns 0x00000000
T2F7C 9084:288.208 JLINK_ReadReg(FPS29)
T2F7C 9084:288.231 - 0.034ms returns 0x00000000
T2F7C 9084:288.255 JLINK_ReadReg(FPS30)
T2F7C 9084:288.278 - 0.034ms returns 0x00000000
T2F7C 9084:288.303 JLINK_ReadReg(FPS31)
T2F7C 9084:288.326 - 0.034ms returns 0x00000000
T2DD0 9084:288.633   JLINK_ReadMemEx(0x20006FC4, 0x0004 Bytes, ..., Flags = 0x02000000)
T2DD0 9084:288.709    -- CPU_ReadMem(64 bytes @ 0x20006FC0)
T2DD0 9084:289.986    -- Updating C cache (64 bytes @ 0x20006FC0)
T2DD0 9084:290.008    -- Read from C cache (4 bytes @ 0x20006FC4)
T2DD0 9084:290.021   Data:  CF 0D 00 00
T2DD0 9084:290.033 - 1.406ms returns 0x04
T2DD0 9084:290.048   JLINK_ReadMemEx(0x20006FDC, 0x0004 Bytes, ..., Flags = 0x02000000)
T2DD0 9084:290.062    -- Read from C cache (4 bytes @ 0x20006FDC)
T2DD0 9084:290.074   Data:  69 09 00 00
T2DD0 9084:290.086 - 0.042ms returns 0x04
T2DD0 9084:290.097   JLINK_ReadMemEx(0x20006FC8, 0x0004 Bytes, ..., Flags = 0x02000000)
T2DD0 9084:290.110    -- Read from C cache (4 bytes @ 0x20006FC8)
T2DD0 9084:290.122   Data:  00 00 00 00
T2DD0 9084:290.134 - 0.041ms returns 0x04
T2DD0 9084:290.143   JLINK_ReadMemEx(0x20006FCC, 0x0004 Bytes, ..., Flags = 0x02000000)
T2DD0 9084:290.156    -- Read from C cache (4 bytes @ 0x20006FCC)
T2DD0 9084:290.168   Data:  00 00 00 00
T2DD0 9084:290.180 - 0.041ms returns 0x04
T2DD0 9084:290.189   JLINK_ReadMemEx(0x20006FD0, 0x0004 Bytes, ..., Flags = 0x02000000)
T2DD0 9084:290.202    -- Read from C cache (4 bytes @ 0x20006FD0)
T2DD0 9084:290.214   Data:  00 00 00 00
T2DD0 9084:290.226 - 0.041ms returns 0x04
T2DD0 9084:290.235   JLINK_ReadMemEx(0x20006FD4, 0x0004 Bytes, ..., Flags = 0x02000000)
T2DD0 9084:290.248    -- Read from C cache (4 bytes @ 0x20006FD4)
T2DD0 9084:290.260   Data:  3F 34 00 00
T2DD0 9084:290.272 - 0.040ms returns 0x04
T2DD0 9084:290.281   JLINK_ReadMemEx(0x20006FD8, 0x0004 Bytes, ..., Flags = 0x02000000)
T2DD0 9084:290.293    -- Read from C cache (4 bytes @ 0x20006FD8)
T2DD0 9084:290.306   Data:  00 00 00 00
T2DD0 9084:290.317 - 0.040ms returns 0x04
T2DD0 9084:290.328   JLINK_ReadMemEx(0x20006FE4, 0x0004 Bytes, ..., Flags = 0x02000000)
T2DD0 9084:290.340    -- Read from C cache (4 bytes @ 0x20006FE4)
T2DD0 9084:290.352   Data:  A1 04 00 00
T2DD0 9084:290.364 - 0.040ms returns 0x04
T2DD0 9084:290.375   JLINK_ReadMemEx(0x20006FE0, 0x0004 Bytes, ..., Flags = 0x02000000)
T2DD0 9084:290.388    -- Read from C cache (4 bytes @ 0x20006FE0)
T2DD0 9084:290.400   Data:  00 00 00 00
T2DD0 9084:290.412 - 0.041ms returns 0x04
T2F7C 9085:770.593   JLINK_ReadMemEx(0x00000AA2, 0x0002 Bytes, ..., Flags = 0x02000000)
T2F7C 9085:770.648    -- CPU_ReadMem(64 bytes @ 0x00000A80)
T2F7C 9085:771.813    -- Updating C cache (64 bytes @ 0x00000A80)
T2F7C 9085:771.875    -- Read from C cache (2 bytes @ 0x00000AA2)
T2F7C 9085:771.902   Data:  AB BE
T2F7C 9085:771.927 - 1.343ms returns 0x02
T2F7C 9085:771.957 JLINK_WriteReg(R15 (PC), 0x00000AA4)
T2F7C 9085:771.978 - 0.031ms returns 0x00
T2F7C 9085:772.001   JLINK_SetBPEx(Addr = 0x000015AC, Type = 0xFFFFFFF2)
T2F7C 9085:772.038 - 0.046ms returns 0x00000006
T2F7C 9085:772.060   JLINK_SetBPEx(Addr = 0x00001452, Type = 0xFFFFFFF2)
T2F7C 9085:772.086 - 0.035ms returns 0x00000007
T2F7C 9085:772.109 JLINK_Go()
T2F7C 9085:772.709    -- CPU_WriteMem(4 bytes @ 0xE0002000)
T2F7C 9085:773.337    -- CPU_WriteMem(4 bytes @ 0xE0002000)
T2F7C 9085:773.994    -- CPU_ReadMem(4 bytes @ 0xE0001000)
T2F7C 9085:775.774 - 3.676ms
T2F7C 9085:876.068 JLINK_IsHalted()
T2F7C 9085:881.165 - 5.149ms returns TRUE
T2F7C 9085:881.242 JLINK_Halt()
T2F7C 9085:881.266 - 0.035ms returns 0x00
T2F7C 9085:881.292 JLINK_IsHalted()
T2F7C 9085:881.317 - 0.037ms returns TRUE
T2F7C 9085:881.344 JLINK_IsHalted()
T2F7C 9085:881.376 - 0.044ms returns TRUE
T2F7C 9085:881.401 JLINK_IsHalted()
T2F7C 9085:881.423 - 0.033ms returns TRUE
T2F7C 9085:881.453 JLINK_ReadReg(R15 (PC))
T2F7C 9085:881.480 - 0.039ms returns 0x00000AA2
T2F7C 9085:881.506 JLINK_ReadReg(XPSR)
T2F7C 9085:881.529 - 0.035ms returns 0x01000000
T2F7C 9085:881.564 JLINK_ClrBPEx(BPHandle = 0x00000006)
T2F7C 9085:881.588 - 0.036ms returns 0x00
T2F7C 9085:881.616 JLINK_ClrBPEx(BPHandle = 0x00000007)
T2F7C 9085:881.639 - 0.034ms returns 0x00
T2F7C 9085:881.670   JLINK_ReadMemU32(0xE000ED30, 0x0001 Items, ...)
T2F7C 9085:881.714    -- CPU_ReadMem(4 bytes @ 0xE000ED30)
T2F7C 9085:882.357   Data:  02 00 00 00
T2F7C 9085:882.397 - 0.737ms returns 1
T2F7C 9085:882.420   JLINK_ReadMemU32(0xE0001028, 0x0001 Items, ...)
T2F7C 9085:882.451    -- CPU_ReadMem(4 bytes @ 0xE0001028)
T2F7C 9085:883.119   Data:  00 00 00 00
T2F7C 9085:883.140    - DWT_FUNC[0]
T2F7C 9085:883.153 - 0.737ms returns 1
T2F7C 9085:883.163   JLINK_ReadMemU32(0xE0001038, 0x0001 Items, ...)
T2F7C 9085:883.178    -- CPU_ReadMem(4 bytes @ 0xE0001038)
T2F7C 9085:883.717   Data:  00 02 00 00
T2F7C 9085:883.739    - DWT_FUNC[1]
T2F7C 9085:883.751 - 0.591ms returns 1
T2F7C 9085:883.762   JLINK_ReadMemU32(0xE0001048, 0x0001 Items, ...)
T2F7C 9085:883.777    -- CPU_ReadMem(4 bytes @ 0xE0001048)
T2F7C 9085:884.781   Data:  00 00 00 00
T2F7C 9085:884.836    - DWT_FUNC[2]
T2F7C 9085:884.869 - 1.118ms returns 1
T2F7C 9085:884.899   JLINK_ReadMemU32(0xE0001058, 0x0001 Items, ...)
T2F7C 9085:884.941    -- CPU_ReadMem(4 bytes @ 0xE0001058)
T2F7C 9085:885.667   Data:  00 00 00 00
T2F7C 9085:885.730    - DWT_FUNC[3]
T2F7C 9085:885.762 - 0.875ms returns 1
T2F7C 9085:885.876 JLINK_ReadReg(R0)
T2F7C 9085:885.905 - 0.041ms returns 0x00000001
T2F7C 9085:885.931 JLINK_ReadReg(R1)
T2F7C 9085:885.958 - 0.038ms returns 0x20006FB8
T2F7C 9085:885.982 JLINK_ReadReg(R2)
T2F7C 9085:885.995 - 0.017ms returns 0x00000000
T2F7C 9085:886.005 JLINK_ReadReg(R3)
T2F7C 9085:886.013 - 0.012ms returns 0x0000343D
T2F7C 9085:886.022 JLINK_ReadReg(R4)
T2F7C 9085:886.030 - 0.012ms returns 0x00000004
T2F7C 9085:886.040 JLINK_ReadReg(R5)
T2F7C 9085:886.048 - 0.012ms returns 0x00000002
T2F7C 9085:886.058 JLINK_ReadReg(R6)
T2F7C 9085:886.068 - 0.015ms returns 0x20000264
T2F7C 9085:886.078 JLINK_ReadReg(R7)
T2F7C 9085:886.086 - 0.012ms returns 0x0000343C
T2F7C 9085:886.095 JLINK_ReadReg(R8)
T2F7C 9085:886.104 - 0.013ms returns 0x00000000
T2F7C 9085:886.114 JLINK_ReadReg(R9)
T2F7C 9085:886.122 - 0.012ms returns 0x00000000
T2F7C 9085:886.131 JLINK_ReadReg(R10)
T2F7C 9085:886.140 - 0.013ms returns 0x00003470
T2F7C 9085:886.150 JLINK_ReadReg(R11)
T2F7C 9085:886.159 - 0.014ms returns 0x00003470
T2F7C 9085:886.170 JLINK_ReadReg(R12)
T2F7C 9085:886.179 - 0.014ms returns 0x00000000
T2F7C 9085:886.189 JLINK_ReadReg(R13 (SP))
T2F7C 9085:886.198 - 0.012ms returns 0x20006FB8
T2F7C 9085:886.207 JLINK_ReadReg(R14)
T2F7C 9085:886.216 - 0.012ms returns 0x00000A9D
T2F7C 9085:886.225 JLINK_ReadReg(R15 (PC))
T2F7C 9085:886.235 - 0.015ms returns 0x00000AA2
T2F7C 9085:886.245 JLINK_ReadReg(XPSR)
T2F7C 9085:886.260 - 0.019ms returns 0x01000000
T2F7C 9085:886.270 JLINK_ReadReg(MSP)
T2F7C 9085:886.278 - 0.012ms returns 0x20006FB8
T2F7C 9085:886.287 JLINK_ReadReg(PSP)
T2F7C 9085:886.295 - 0.012ms returns 0x00000000
T2F7C 9085:886.304 JLINK_ReadReg(CFBP)
T2F7C 9085:886.312 - 0.012ms returns 0x04000000
T2F7C 9085:886.321 JLINK_ReadReg(FPSCR)
T2F7C 9085:893.818 - 7.541ms returns 0x03000000
T2F7C 9085:893.888 JLINK_ReadReg(FPS0)
T2F7C 9085:893.917 - 0.041ms returns 0x00000000
T2F7C 9085:893.945 JLINK_ReadReg(FPS1)
T2F7C 9085:893.968 - 0.034ms returns 0x00000000
T2F7C 9085:893.995 JLINK_ReadReg(FPS2)
T2F7C 9085:894.019 - 0.035ms returns 0x00000000
T2F7C 9085:894.046 JLINK_ReadReg(FPS3)
T2F7C 9085:894.069 - 0.034ms returns 0x00000000
T2F7C 9085:894.096 JLINK_ReadReg(FPS4)
T2F7C 9085:894.122 - 0.037ms returns 0x00000000
T2F7C 9085:894.150 JLINK_ReadReg(FPS5)
T2F7C 9085:894.174 - 0.040ms returns 0x00000000
T2F7C 9085:894.210 JLINK_ReadReg(FPS6)
T2F7C 9085:894.233 - 0.034ms returns 0x00000000
T2F7C 9085:894.260 JLINK_ReadReg(FPS7)
T2F7C 9085:894.283 - 0.034ms returns 0x00000000
T2F7C 9085:894.310 JLINK_ReadReg(FPS8)
T2F7C 9085:894.334 - 0.036ms returns 0x00000000
T2F7C 9085:894.363 JLINK_ReadReg(FPS9)
T2F7C 9085:894.386 - 0.034ms returns 0x00000000
T2F7C 9085:894.412 JLINK_ReadReg(FPS10)
T2F7C 9085:894.435 - 0.034ms returns 0x00000000
T2F7C 9085:894.462 JLINK_ReadReg(FPS11)
T2F7C 9085:894.485 - 0.034ms returns 0x00000000
T2F7C 9085:894.511 JLINK_ReadReg(FPS12)
T2F7C 9085:894.534 - 0.034ms returns 0x00000000
T2F7C 9085:894.561 JLINK_ReadReg(FPS13)
T2F7C 9085:894.583 - 0.034ms returns 0x00000000
T2F7C 9085:894.610 JLINK_ReadReg(FPS14)
T2F7C 9085:894.633 - 0.034ms returns 0x00000000
T2F7C 9085:894.660 JLINK_ReadReg(FPS15)
T2F7C 9085:894.683 - 0.034ms returns 0x00000000
T2F7C 9085:894.710 JLINK_ReadReg(FPS16)
T2F7C 9085:894.732 - 0.033ms returns 0x00000000
T2F7C 9085:894.759 JLINK_ReadReg(FPS17)
T2F7C 9085:894.781 - 0.034ms returns 0x00000000
T2F7C 9085:894.808 JLINK_ReadReg(FPS18)
T2F7C 9085:894.830 - 0.033ms returns 0x00000000
T2F7C 9085:894.857 JLINK_ReadReg(FPS19)
T2F7C 9085:894.880 - 0.034ms returns 0x00000000
T2F7C 9085:894.907 JLINK_ReadReg(FPS20)
T2F7C 9085:894.929 - 0.033ms returns 0x00000000
T2F7C 9085:894.956 JLINK_ReadReg(FPS21)
T2F7C 9085:894.979 - 0.033ms returns 0x00000000
T2F7C 9085:894.999 JLINK_ReadReg(FPS22)
T2F7C 9085:895.009 - 0.014ms returns 0x00000000
T2F7C 9085:895.019 JLINK_ReadReg(FPS23)
T2F7C 9085:895.027 - 0.012ms returns 0x00000000
T2F7C 9085:895.038 JLINK_ReadReg(FPS24)
T2F7C 9085:895.046 - 0.012ms returns 0x00000000
T2F7C 9085:895.056 JLINK_ReadReg(FPS25)
T2F7C 9085:895.064 - 0.012ms returns 0x00000000
T2F7C 9085:895.074 JLINK_ReadReg(FPS26)
T2F7C 9085:895.082 - 0.012ms returns 0x00000000
T2F7C 9085:895.092 JLINK_ReadReg(FPS27)
T2F7C 9085:895.101 - 0.012ms returns 0x00000000
T2F7C 9085:895.110 JLINK_ReadReg(FPS28)
T2F7C 9085:895.119 - 0.013ms returns 0x00000000
T2F7C 9085:895.129 JLINK_ReadReg(FPS29)
T2F7C 9085:895.137 - 0.013ms returns 0x00000000
T2F7C 9085:895.148 JLINK_ReadReg(FPS30)
T2F7C 9085:895.157 - 0.013ms returns 0x00000000
T2F7C 9085:895.167 JLINK_ReadReg(FPS31)
T2F7C 9085:895.175 - 0.012ms returns 0x00000000
T2DD0 9085:895.380   JLINK_ReadMemEx(0x20006FC4, 0x0004 Bytes, ..., Flags = 0x02000000)
T2DD0 9085:895.434    -- CPU_ReadMem(64 bytes @ 0x20006FC0)
T2DD0 9085:896.668    -- Updating C cache (64 bytes @ 0x20006FC0)
T2DD0 9085:896.689    -- Read from C cache (4 bytes @ 0x20006FC4)
T2DD0 9085:896.702   Data:  CF 0D 00 00
T2DD0 9085:896.714 - 1.339ms returns 0x04
T2DD0 9085:896.729   JLINK_ReadMemEx(0x20006FDC, 0x0004 Bytes, ..., Flags = 0x02000000)
T2DD0 9085:896.743    -- Read from C cache (4 bytes @ 0x20006FDC)
T2DD0 9085:896.755   Data:  81 09 00 00
T2DD0 9085:896.767 - 0.042ms returns 0x04
T2DD0 9085:896.777   JLINK_ReadMemEx(0x20006FC8, 0x0004 Bytes, ..., Flags = 0x02000000)
T2DD0 9085:896.790    -- Read from C cache (4 bytes @ 0x20006FC8)
T2DD0 9085:896.802   Data:  00 00 00 00
T2DD0 9085:896.814 - 0.041ms returns 0x04
T2DD0 9085:896.824   JLINK_ReadMemEx(0x20006FCC, 0x0004 Bytes, ..., Flags = 0x02000000)
T2DD0 9085:896.836    -- Read from C cache (4 bytes @ 0x20006FCC)
T2DD0 9085:896.848   Data:  00 00 00 00
T2DD0 9085:896.860 - 0.040ms returns 0x04
T2DD0 9085:896.869   JLINK_ReadMemEx(0x20006FD0, 0x0004 Bytes, ..., Flags = 0x02000000)
T2DD0 9085:896.882    -- Read from C cache (4 bytes @ 0x20006FD0)
T2DD0 9085:896.894   Data:  00 00 00 00
T2DD0 9085:896.906 - 0.041ms returns 0x04
T2DD0 9085:896.915   JLINK_ReadMemEx(0x20006FD4, 0x0004 Bytes, ..., Flags = 0x02000000)
T2DD0 9085:896.928    -- Read from C cache (4 bytes @ 0x20006FD4)
T2DD0 9085:896.957   Data:  3F 34 00 00
T2DD0 9085:896.992 - 0.088ms returns 0x04
T2DD0 9085:897.018   JLINK_ReadMemEx(0x20006FD8, 0x0004 Bytes, ..., Flags = 0x02000000)
T2DD0 9085:897.052    -- Read from C cache (4 bytes @ 0x20006FD8)
T2DD0 9085:897.085   Data:  00 00 00 00
T2DD0 9085:897.127 - 0.121ms returns 0x04
T2DD0 9085:897.156   JLINK_ReadMemEx(0x20006FE4, 0x0004 Bytes, ..., Flags = 0x02000000)
T2DD0 9085:897.192    -- Read from C cache (4 bytes @ 0x20006FE4)
T2DD0 9085:897.226   Data:  A1 04 00 00
T2DD0 9085:897.258 - 0.114ms returns 0x04
T2DD0 9085:897.287   JLINK_ReadMemEx(0x20006FE0, 0x0004 Bytes, ..., Flags = 0x02000000)
T2DD0 9085:897.322    -- Read from C cache (4 bytes @ 0x20006FE0)
T2DD0 9085:897.354   Data:  00 00 00 00
T2DD0 9085:897.389 - 0.114ms returns 0x04
T2DD0 9087:113.129   JLINK_ReadMemEx(0x000013F0, 0x0010 Bytes, ..., Flags = 0x02000000)
T2DD0 9087:113.203    -- CPU_ReadMem(64 bytes @ 0x000013C0)
T2DD0 9087:114.459    -- Updating C cache (64 bytes @ 0x000013C0)
T2DD0 9087:114.491    -- Read from C cache (16 bytes @ 0x000013F0)
T2DD0 9087:114.506   Data:  0C E0 07 48 00 68 40 F4 00 70 06 49 C1 F8 08 01
T2DD0 9087:114.519 - 1.397ms returns 0x10
T2DD0 9087:114.533   JLINK_ReadMemEx(0x00001400, 0x002C Bytes, ..., Flags = 0x02000000)
T2DD0 9087:114.547    -- CPU_ReadMem(64 bytes @ 0x00001400)
T2DD0 9087:115.666    -- Updating C cache (64 bytes @ 0x00001400)
T2DD0 9087:115.688    -- Read from C cache (44 bytes @ 0x00001400)
T2DD0 9087:115.702   Data:  05 A0 FF F7 DF F8 64 20 00 F0 E0 FF F1 E7 00 00 ...
T2DD0 9087:115.714 - 1.185ms returns 0x2C
T2F7C 9093:762.885   JLINK_ReadMemEx(0x00000AA2, 0x0002 Bytes, ..., Flags = 0x02000000)
T2F7C 9093:762.943    -- CPU_ReadMem(64 bytes @ 0x00000A80)
T2F7C 9093:764.145    -- Updating C cache (64 bytes @ 0x00000A80)
T2F7C 9093:764.179    -- Read from C cache (2 bytes @ 0x00000AA2)
T2F7C 9093:764.192   Data:  AB BE
T2F7C 9093:764.205 - 1.325ms returns 0x02
T2F7C 9093:764.223 JLINK_WriteReg(R15 (PC), 0x00000AA4)
T2F7C 9093:764.235 - 0.016ms returns 0x00
